# GHz S MA R 50
! 2-port S-parameter file
! freq S11mag S11ang S21mag S21ang S12mag S12ang S22mag S22ang
0.000000e+00	 0.000000	0.000000	 1.000000	-0.000000	 1.000000	-0.000000	 0.000000	0.000000	 
1.000000e-03	 0.000000	0.000000	 0.999673	-2.538000	 0.999673	-2.538000	 0.000000	0.000000	 
2.000000e-03	 0.000000	0.000000	 0.999345	-5.076000	 0.999345	-5.076000	 0.000000	0.000000	 
3.000000e-03	 0.000000	0.000000	 0.999018	-7.614000	 0.999018	-7.614000	 0.000000	0.000000	 
4.000000e-03	 0.000000	0.000000	 0.998691	-10.152000	 0.998691	-10.152000	 0.000000	0.000000	 
5.000000e-03	 0.000000	0.000000	 0.998364	-12.690000	 0.998364	-12.690000	 0.000000	0.000000	 
6.000000e-03	 0.000000	0.000000	 0.998037	-15.228000	 0.998037	-15.228000	 0.000000	0.000000	 
7.000000e-03	 0.000000	0.000000	 0.997711	-17.766000	 0.997711	-17.766000	 0.000000	0.000000	 
8.000000e-03	 0.000000	0.000000	 0.997384	-20.304000	 0.997384	-20.304000	 0.000000	0.000000	 
9.000000e-03	 0.000000	0.000000	 0.997057	-22.842000	 0.997057	-22.842000	 0.000000	0.000000	 
1.000000e-02	 0.000000	0.000000	 0.996731	-25.380000	 0.996731	-25.380000	 0.000000	0.000000	 
1.100000e-02	 0.000000	0.000000	 0.996405	-27.918000	 0.996405	-27.918000	 0.000000	0.000000	 
1.200000e-02	 0.000000	0.000000	 0.996078	-30.456000	 0.996078	-30.456000	 0.000000	0.000000	 
1.300000e-02	 0.000000	0.000000	 0.995752	-32.994000	 0.995752	-32.994000	 0.000000	0.000000	 
1.400000e-02	 0.000000	0.000000	 0.995426	-35.532000	 0.995426	-35.532000	 0.000000	0.000000	 
1.500000e-02	 0.000000	0.000000	 0.995101	-38.070000	 0.995101	-38.070000	 0.000000	0.000000	 
1.600000e-02	 0.000000	0.000000	 0.994775	-40.608000	 0.994775	-40.608000	 0.000000	0.000000	 
1.700000e-02	 0.000000	0.000000	 0.994449	-43.146000	 0.994449	-43.146000	 0.000000	0.000000	 
1.800000e-02	 0.000000	0.000000	 0.994124	-45.684000	 0.994124	-45.684000	 0.000000	0.000000	 
1.900000e-02	 0.000000	0.000000	 0.993798	-48.222000	 0.993798	-48.222000	 0.000000	0.000000	 
2.000000e-02	 0.000000	0.000000	 0.993473	-50.760000	 0.993473	-50.760000	 0.000000	0.000000	 
2.100000e-02	 0.000000	0.000000	 0.993147	-53.298000	 0.993147	-53.298000	 0.000000	0.000000	 
2.200000e-02	 0.000000	0.000000	 0.992822	-55.836000	 0.992822	-55.836000	 0.000000	0.000000	 
2.300000e-02	 0.000000	0.000000	 0.992497	-58.374000	 0.992497	-58.374000	 0.000000	0.000000	 
2.400000e-02	 0.000000	0.000000	 0.992172	-60.912000	 0.992172	-60.912000	 0.000000	0.000000	 
2.500000e-02	 0.000000	0.000000	 0.991848	-63.450000	 0.991848	-63.450000	 0.000000	0.000000	 
2.600000e-02	 0.000000	0.000000	 0.991523	-65.988000	 0.991523	-65.988000	 0.000000	0.000000	 
2.700000e-02	 0.000000	0.000000	 0.991198	-68.526000	 0.991198	-68.526000	 0.000000	0.000000	 
2.800000e-02	 0.000000	0.000000	 0.990874	-71.064000	 0.990874	-71.064000	 0.000000	0.000000	 
2.900000e-02	 0.000000	0.000000	 0.990549	-73.602000	 0.990549	-73.602000	 0.000000	0.000000	 
3.000000e-02	 0.000000	0.000000	 0.990225	-76.140000	 0.990225	-76.140000	 0.000000	0.000000	 
3.100000e-02	 0.000000	0.000000	 0.989901	-78.678000	 0.989901	-78.678000	 0.000000	0.000000	 
3.200000e-02	 0.000000	0.000000	 0.989577	-81.216000	 0.989577	-81.216000	 0.000000	0.000000	 
3.300000e-02	 0.000000	0.000000	 0.989253	-83.754000	 0.989253	-83.754000	 0.000000	0.000000	 
3.400000e-02	 0.000000	0.000000	 0.988929	-86.292000	 0.988929	-86.292000	 0.000000	0.000000	 
3.500000e-02	 0.000000	0.000000	 0.988605	-88.830000	 0.988605	-88.830000	 0.000000	0.000000	 
3.600000e-02	 0.000000	0.000000	 0.988282	-91.368000	 0.988282	-91.368000	 0.000000	0.000000	 
3.700000e-02	 0.000000	0.000000	 0.987958	-93.906000	 0.987958	-93.906000	 0.000000	0.000000	 
3.800000e-02	 0.000000	0.000000	 0.987635	-96.444000	 0.987635	-96.444000	 0.000000	0.000000	 
3.900000e-02	 0.000000	0.000000	 0.987311	-98.982000	 0.987311	-98.982000	 0.000000	0.000000	 
4.000000e-02	 0.000000	0.000000	 0.986988	-101.520000	 0.986988	-101.520000	 0.000000	0.000000	 
4.100000e-02	 0.000000	0.000000	 0.986665	-104.058000	 0.986665	-104.058000	 0.000000	0.000000	 
4.200000e-02	 0.000000	0.000000	 0.986342	-106.596000	 0.986342	-106.596000	 0.000000	0.000000	 
4.300000e-02	 0.000000	0.000000	 0.986019	-109.134000	 0.986019	-109.134000	 0.000000	0.000000	 
4.400000e-02	 0.000000	0.000000	 0.985696	-111.672000	 0.985696	-111.672000	 0.000000	0.000000	 
4.500000e-02	 0.000000	0.000000	 0.985373	-114.210000	 0.985373	-114.210000	 0.000000	0.000000	 
4.600000e-02	 0.000000	0.000000	 0.985051	-116.748000	 0.985051	-116.748000	 0.000000	0.000000	 
4.700000e-02	 0.000000	0.000000	 0.984728	-119.286000	 0.984728	-119.286000	 0.000000	0.000000	 
4.800000e-02	 0.000000	0.000000	 0.984406	-121.824000	 0.984406	-121.824000	 0.000000	0.000000	 
4.900000e-02	 0.000000	0.000000	 0.984084	-124.362000	 0.984084	-124.362000	 0.000000	0.000000	 
5.000000e-02	 0.000000	0.000000	 0.983762	-126.900000	 0.983762	-126.900000	 0.000000	0.000000	 
5.100000e-02	 0.000000	0.000000	 0.983439	-129.438000	 0.983439	-129.438000	 0.000000	0.000000	 
5.200000e-02	 0.000000	0.000000	 0.983118	-131.976000	 0.983118	-131.976000	 0.000000	0.000000	 
5.300000e-02	 0.000000	0.000000	 0.982796	-134.514000	 0.982796	-134.514000	 0.000000	0.000000	 
5.400000e-02	 0.000000	0.000000	 0.982474	-137.052000	 0.982474	-137.052000	 0.000000	0.000000	 
5.500000e-02	 0.000000	0.000000	 0.982152	-139.590000	 0.982152	-139.590000	 0.000000	0.000000	 
5.600000e-02	 0.000000	0.000000	 0.981831	-142.128000	 0.981831	-142.128000	 0.000000	0.000000	 
5.700000e-02	 0.000000	0.000000	 0.981509	-144.666000	 0.981509	-144.666000	 0.000000	0.000000	 
5.800000e-02	 0.000000	0.000000	 0.981188	-147.204000	 0.981188	-147.204000	 0.000000	0.000000	 
5.900000e-02	 0.000000	0.000000	 0.980867	-149.742000	 0.980867	-149.742000	 0.000000	0.000000	 
6.000000e-02	 0.000000	0.000000	 0.980546	-152.280000	 0.980546	-152.280000	 0.000000	0.000000	 
6.100000e-02	 0.000000	0.000000	 0.980225	-154.818000	 0.980225	-154.818000	 0.000000	0.000000	 
6.200000e-02	 0.000000	0.000000	 0.979904	-157.356000	 0.979904	-157.356000	 0.000000	0.000000	 
6.300000e-02	 0.000000	0.000000	 0.979583	-159.894000	 0.979583	-159.894000	 0.000000	0.000000	 
6.400000e-02	 0.000000	0.000000	 0.979262	-162.432000	 0.979262	-162.432000	 0.000000	0.000000	 
6.500000e-02	 0.000000	0.000000	 0.978942	-164.970000	 0.978942	-164.970000	 0.000000	0.000000	 
6.600000e-02	 0.000000	0.000000	 0.978621	-167.508000	 0.978621	-167.508000	 0.000000	0.000000	 
6.700000e-02	 0.000000	0.000000	 0.978301	-170.046000	 0.978301	-170.046000	 0.000000	0.000000	 
6.800000e-02	 0.000000	0.000000	 0.977980	-172.584000	 0.977980	-172.584000	 0.000000	0.000000	 
6.900000e-02	 0.000000	0.000000	 0.977660	-175.122000	 0.977660	-175.122000	 0.000000	0.000000	 
7.000000e-02	 0.000000	0.000000	 0.977340	-177.660000	 0.977340	-177.660000	 0.000000	0.000000	 
7.100000e-02	 0.000000	0.000000	 0.977020	-180.198000	 0.977020	-180.198000	 0.000000	0.000000	 
7.200000e-02	 0.000000	0.000000	 0.976700	-182.736000	 0.976700	-182.736000	 0.000000	0.000000	 
7.300000e-02	 0.000000	0.000000	 0.976381	-185.274000	 0.976381	-185.274000	 0.000000	0.000000	 
7.400000e-02	 0.000000	0.000000	 0.976061	-187.812000	 0.976061	-187.812000	 0.000000	0.000000	 
7.500000e-02	 0.000000	0.000000	 0.975741	-190.350000	 0.975741	-190.350000	 0.000000	0.000000	 
7.600000e-02	 0.000000	0.000000	 0.975422	-192.888000	 0.975422	-192.888000	 0.000000	0.000000	 
7.700000e-02	 0.000000	0.000000	 0.975103	-195.426000	 0.975103	-195.426000	 0.000000	0.000000	 
7.800000e-02	 0.000000	0.000000	 0.974783	-197.964000	 0.974783	-197.964000	 0.000000	0.000000	 
7.900000e-02	 0.000000	0.000000	 0.974464	-200.502000	 0.974464	-200.502000	 0.000000	0.000000	 
8.000000e-02	 0.000000	0.000000	 0.974145	-203.040000	 0.974145	-203.040000	 0.000000	0.000000	 
8.100000e-02	 0.000000	0.000000	 0.973826	-205.578000	 0.973826	-205.578000	 0.000000	0.000000	 
8.200000e-02	 0.000000	0.000000	 0.973508	-208.116000	 0.973508	-208.116000	 0.000000	0.000000	 
8.300000e-02	 0.000000	0.000000	 0.973189	-210.654000	 0.973189	-210.654000	 0.000000	0.000000	 
8.400000e-02	 0.000000	0.000000	 0.972870	-213.192000	 0.972870	-213.192000	 0.000000	0.000000	 
8.500000e-02	 0.000000	0.000000	 0.972552	-215.730000	 0.972552	-215.730000	 0.000000	0.000000	 
8.600000e-02	 0.000000	0.000000	 0.972233	-218.268000	 0.972233	-218.268000	 0.000000	0.000000	 
8.700000e-02	 0.000000	0.000000	 0.971915	-220.806000	 0.971915	-220.806000	 0.000000	0.000000	 
8.800000e-02	 0.000000	0.000000	 0.971597	-223.344000	 0.971597	-223.344000	 0.000000	0.000000	 
8.900000e-02	 0.000000	0.000000	 0.971279	-225.882000	 0.971279	-225.882000	 0.000000	0.000000	 
9.000000e-02	 0.000000	0.000000	 0.970961	-228.420000	 0.970961	-228.420000	 0.000000	0.000000	 
9.100000e-02	 0.000000	0.000000	 0.970643	-230.958000	 0.970643	-230.958000	 0.000000	0.000000	 
9.200000e-02	 0.000000	0.000000	 0.970325	-233.496000	 0.970325	-233.496000	 0.000000	0.000000	 
9.300000e-02	 0.000000	0.000000	 0.970008	-236.034000	 0.970008	-236.034000	 0.000000	0.000000	 
9.400000e-02	 0.000000	0.000000	 0.969690	-238.572000	 0.969690	-238.572000	 0.000000	0.000000	 
9.500000e-02	 0.000000	0.000000	 0.969373	-241.110000	 0.969373	-241.110000	 0.000000	0.000000	 
9.600000e-02	 0.000000	0.000000	 0.969055	-243.648000	 0.969055	-243.648000	 0.000000	0.000000	 
9.700000e-02	 0.000000	0.000000	 0.968738	-246.186000	 0.968738	-246.186000	 0.000000	0.000000	 
9.800000e-02	 0.000000	0.000000	 0.968421	-248.724000	 0.968421	-248.724000	 0.000000	0.000000	 
9.900000e-02	 0.000000	0.000000	 0.968104	-251.262000	 0.968104	-251.262000	 0.000000	0.000000	 
1.000000e-01	 0.000000	0.000000	 0.967787	-253.800000	 0.967787	-253.800000	 0.000000	0.000000	 
1.010000e-01	 0.000000	0.000000	 0.967470	-256.338000	 0.967470	-256.338000	 0.000000	0.000000	 
1.020000e-01	 0.000000	0.000000	 0.967153	-258.876000	 0.967153	-258.876000	 0.000000	0.000000	 
1.030000e-01	 0.000000	0.000000	 0.966837	-261.414000	 0.966837	-261.414000	 0.000000	0.000000	 
1.040000e-01	 0.000000	0.000000	 0.966520	-263.952000	 0.966520	-263.952000	 0.000000	0.000000	 
1.050000e-01	 0.000000	0.000000	 0.966204	-266.490000	 0.966204	-266.490000	 0.000000	0.000000	 
1.060000e-01	 0.000000	0.000000	 0.965887	-269.028000	 0.965887	-269.028000	 0.000000	0.000000	 
1.070000e-01	 0.000000	0.000000	 0.965571	-271.566000	 0.965571	-271.566000	 0.000000	0.000000	 
1.080000e-01	 0.000000	0.000000	 0.965255	-274.104000	 0.965255	-274.104000	 0.000000	0.000000	 
1.090000e-01	 0.000000	0.000000	 0.964939	-276.642000	 0.964939	-276.642000	 0.000000	0.000000	 
1.100000e-01	 0.000000	0.000000	 0.964623	-279.180000	 0.964623	-279.180000	 0.000000	0.000000	 
1.110000e-01	 0.000000	0.000000	 0.964307	-281.718000	 0.964307	-281.718000	 0.000000	0.000000	 
1.120000e-01	 0.000000	0.000000	 0.963992	-284.256000	 0.963992	-284.256000	 0.000000	0.000000	 
1.130000e-01	 0.000000	0.000000	 0.963676	-286.794000	 0.963676	-286.794000	 0.000000	0.000000	 
1.140000e-01	 0.000000	0.000000	 0.963361	-289.332000	 0.963361	-289.332000	 0.000000	0.000000	 
1.150000e-01	 0.000000	0.000000	 0.963045	-291.870000	 0.963045	-291.870000	 0.000000	0.000000	 
1.160000e-01	 0.000000	0.000000	 0.962730	-294.408000	 0.962730	-294.408000	 0.000000	0.000000	 
1.170000e-01	 0.000000	0.000000	 0.962415	-296.946000	 0.962415	-296.946000	 0.000000	0.000000	 
1.180000e-01	 0.000000	0.000000	 0.962100	-299.484000	 0.962100	-299.484000	 0.000000	0.000000	 
1.190000e-01	 0.000000	0.000000	 0.961785	-302.022000	 0.961785	-302.022000	 0.000000	0.000000	 
1.200000e-01	 0.000000	0.000000	 0.961470	-304.560000	 0.961470	-304.560000	 0.000000	0.000000	 
1.210000e-01	 0.000000	0.000000	 0.961155	-307.098000	 0.961155	-307.098000	 0.000000	0.000000	 
1.220000e-01	 0.000000	0.000000	 0.960840	-309.636000	 0.960840	-309.636000	 0.000000	0.000000	 
1.230000e-01	 0.000000	0.000000	 0.960526	-312.174000	 0.960526	-312.174000	 0.000000	0.000000	 
1.240000e-01	 0.000000	0.000000	 0.960211	-314.712000	 0.960211	-314.712000	 0.000000	0.000000	 
1.250000e-01	 0.000000	0.000000	 0.959897	-317.250000	 0.959897	-317.250000	 0.000000	0.000000	 
1.260000e-01	 0.000000	0.000000	 0.959583	-319.788000	 0.959583	-319.788000	 0.000000	0.000000	 
1.270000e-01	 0.000000	0.000000	 0.959269	-322.326000	 0.959269	-322.326000	 0.000000	0.000000	 
1.280000e-01	 0.000000	0.000000	 0.958955	-324.864000	 0.958955	-324.864000	 0.000000	0.000000	 
1.290000e-01	 0.000000	0.000000	 0.958641	-327.402000	 0.958641	-327.402000	 0.000000	0.000000	 
1.300000e-01	 0.000000	0.000000	 0.958327	-329.940000	 0.958327	-329.940000	 0.000000	0.000000	 
1.310000e-01	 0.000000	0.000000	 0.958013	-332.478000	 0.958013	-332.478000	 0.000000	0.000000	 
1.320000e-01	 0.000000	0.000000	 0.957699	-335.016000	 0.957699	-335.016000	 0.000000	0.000000	 
1.330000e-01	 0.000000	0.000000	 0.957386	-337.554000	 0.957386	-337.554000	 0.000000	0.000000	 
1.340000e-01	 0.000000	0.000000	 0.957072	-340.092000	 0.957072	-340.092000	 0.000000	0.000000	 
1.350000e-01	 0.000000	0.000000	 0.956759	-342.630000	 0.956759	-342.630000	 0.000000	0.000000	 
1.360000e-01	 0.000000	0.000000	 0.956446	-345.168000	 0.956446	-345.168000	 0.000000	0.000000	 
1.370000e-01	 0.000000	0.000000	 0.956133	-347.706000	 0.956133	-347.706000	 0.000000	0.000000	 
1.380000e-01	 0.000000	0.000000	 0.955820	-350.244000	 0.955820	-350.244000	 0.000000	0.000000	 
1.390000e-01	 0.000000	0.000000	 0.955507	-352.782000	 0.955507	-352.782000	 0.000000	0.000000	 
1.400000e-01	 0.000000	0.000000	 0.955194	-355.320000	 0.955194	-355.320000	 0.000000	0.000000	 
1.410000e-01	 0.000000	0.000000	 0.954881	-357.858000	 0.954881	-357.858000	 0.000000	0.000000	 
1.420000e-01	 0.000000	0.000000	 0.954569	-360.396000	 0.954569	-360.396000	 0.000000	0.000000	 
1.430000e-01	 0.000000	0.000000	 0.954256	-362.934000	 0.954256	-362.934000	 0.000000	0.000000	 
1.440000e-01	 0.000000	0.000000	 0.953944	-365.472000	 0.953944	-365.472000	 0.000000	0.000000	 
1.450000e-01	 0.000000	0.000000	 0.953631	-368.010000	 0.953631	-368.010000	 0.000000	0.000000	 
1.460000e-01	 0.000000	0.000000	 0.953319	-370.548000	 0.953319	-370.548000	 0.000000	0.000000	 
1.470000e-01	 0.000000	0.000000	 0.953007	-373.086000	 0.953007	-373.086000	 0.000000	0.000000	 
1.480000e-01	 0.000000	0.000000	 0.952695	-375.624000	 0.952695	-375.624000	 0.000000	0.000000	 
1.490000e-01	 0.000000	0.000000	 0.952383	-378.162000	 0.952383	-378.162000	 0.000000	0.000000	 
1.500000e-01	 0.000000	0.000000	 0.952071	-380.700000	 0.952071	-380.700000	 0.000000	0.000000	 
1.510000e-01	 0.000000	0.000000	 0.951760	-383.238000	 0.951760	-383.238000	 0.000000	0.000000	 
1.520000e-01	 0.000000	0.000000	 0.951448	-385.776000	 0.951448	-385.776000	 0.000000	0.000000	 
1.530000e-01	 0.000000	0.000000	 0.951137	-388.314000	 0.951137	-388.314000	 0.000000	0.000000	 
1.540000e-01	 0.000000	0.000000	 0.950825	-390.852000	 0.950825	-390.852000	 0.000000	0.000000	 
1.550000e-01	 0.000000	0.000000	 0.950514	-393.390000	 0.950514	-393.390000	 0.000000	0.000000	 
1.560000e-01	 0.000000	0.000000	 0.950203	-395.928000	 0.950203	-395.928000	 0.000000	0.000000	 
1.570000e-01	 0.000000	0.000000	 0.949892	-398.466000	 0.949892	-398.466000	 0.000000	0.000000	 
1.580000e-01	 0.000000	0.000000	 0.949581	-401.004000	 0.949581	-401.004000	 0.000000	0.000000	 
1.590000e-01	 0.000000	0.000000	 0.949270	-403.542000	 0.949270	-403.542000	 0.000000	0.000000	 
1.600000e-01	 0.000000	0.000000	 0.948959	-406.080000	 0.948959	-406.080000	 0.000000	0.000000	 
1.610000e-01	 0.000000	0.000000	 0.948648	-408.618000	 0.948648	-408.618000	 0.000000	0.000000	 
1.620000e-01	 0.000000	0.000000	 0.948338	-411.156000	 0.948338	-411.156000	 0.000000	0.000000	 
1.630000e-01	 0.000000	0.000000	 0.948027	-413.694000	 0.948027	-413.694000	 0.000000	0.000000	 
1.640000e-01	 0.000000	0.000000	 0.947717	-416.232000	 0.947717	-416.232000	 0.000000	0.000000	 
1.650000e-01	 0.000000	0.000000	 0.947407	-418.770000	 0.947407	-418.770000	 0.000000	0.000000	 
1.660000e-01	 0.000000	0.000000	 0.947097	-421.308000	 0.947097	-421.308000	 0.000000	0.000000	 
1.670000e-01	 0.000000	0.000000	 0.946787	-423.846000	 0.946787	-423.846000	 0.000000	0.000000	 
1.680000e-01	 0.000000	0.000000	 0.946477	-426.384000	 0.946477	-426.384000	 0.000000	0.000000	 
1.690000e-01	 0.000000	0.000000	 0.946167	-428.922000	 0.946167	-428.922000	 0.000000	0.000000	 
1.700000e-01	 0.000000	0.000000	 0.945857	-431.460000	 0.945857	-431.460000	 0.000000	0.000000	 
1.710000e-01	 0.000000	0.000000	 0.945547	-433.998000	 0.945547	-433.998000	 0.000000	0.000000	 
1.720000e-01	 0.000000	0.000000	 0.945238	-436.536000	 0.945238	-436.536000	 0.000000	0.000000	 
1.730000e-01	 0.000000	0.000000	 0.944928	-439.074000	 0.944928	-439.074000	 0.000000	0.000000	 
1.740000e-01	 0.000000	0.000000	 0.944619	-441.612000	 0.944619	-441.612000	 0.000000	0.000000	 
1.750000e-01	 0.000000	0.000000	 0.944310	-444.150000	 0.944310	-444.150000	 0.000000	0.000000	 
1.760000e-01	 0.000000	0.000000	 0.944001	-446.688000	 0.944001	-446.688000	 0.000000	0.000000	 
1.770000e-01	 0.000000	0.000000	 0.943692	-449.226000	 0.943692	-449.226000	 0.000000	0.000000	 
1.780000e-01	 0.000000	0.000000	 0.943383	-451.764000	 0.943383	-451.764000	 0.000000	0.000000	 
1.790000e-01	 0.000000	0.000000	 0.943074	-454.302000	 0.943074	-454.302000	 0.000000	0.000000	 
1.800000e-01	 0.000000	0.000000	 0.942765	-456.840000	 0.942765	-456.840000	 0.000000	0.000000	 
1.810000e-01	 0.000000	0.000000	 0.942456	-459.378000	 0.942456	-459.378000	 0.000000	0.000000	 
1.820000e-01	 0.000000	0.000000	 0.942148	-461.916000	 0.942148	-461.916000	 0.000000	0.000000	 
1.830000e-01	 0.000000	0.000000	 0.941839	-464.454000	 0.941839	-464.454000	 0.000000	0.000000	 
1.840000e-01	 0.000000	0.000000	 0.941531	-466.992000	 0.941531	-466.992000	 0.000000	0.000000	 
1.850000e-01	 0.000000	0.000000	 0.941223	-469.530000	 0.941223	-469.530000	 0.000000	0.000000	 
1.860000e-01	 0.000000	0.000000	 0.940915	-472.068000	 0.940915	-472.068000	 0.000000	0.000000	 
1.870000e-01	 0.000000	0.000000	 0.940607	-474.606000	 0.940607	-474.606000	 0.000000	0.000000	 
1.880000e-01	 0.000000	0.000000	 0.940299	-477.144000	 0.940299	-477.144000	 0.000000	0.000000	 
1.890000e-01	 0.000000	0.000000	 0.939991	-479.682000	 0.939991	-479.682000	 0.000000	0.000000	 
1.900000e-01	 0.000000	0.000000	 0.939683	-482.220000	 0.939683	-482.220000	 0.000000	0.000000	 
1.910000e-01	 0.000000	0.000000	 0.939375	-484.758000	 0.939375	-484.758000	 0.000000	0.000000	 
1.920000e-01	 0.000000	0.000000	 0.939068	-487.296000	 0.939068	-487.296000	 0.000000	0.000000	 
1.930000e-01	 0.000000	0.000000	 0.938761	-489.834000	 0.938761	-489.834000	 0.000000	0.000000	 
1.940000e-01	 0.000000	0.000000	 0.938453	-492.372000	 0.938453	-492.372000	 0.000000	0.000000	 
1.950000e-01	 0.000000	0.000000	 0.938146	-494.910000	 0.938146	-494.910000	 0.000000	0.000000	 
1.960000e-01	 0.000000	0.000000	 0.937839	-497.448000	 0.937839	-497.448000	 0.000000	0.000000	 
1.970000e-01	 0.000000	0.000000	 0.937532	-499.986000	 0.937532	-499.986000	 0.000000	0.000000	 
1.980000e-01	 0.000000	0.000000	 0.937225	-502.524000	 0.937225	-502.524000	 0.000000	0.000000	 
1.990000e-01	 0.000000	0.000000	 0.936918	-505.062000	 0.936918	-505.062000	 0.000000	0.000000	 
2.000000e-01	 0.000000	0.000000	 0.936611	-507.600000	 0.936611	-507.600000	 0.000000	0.000000	 
2.010000e-01	 0.000000	0.000000	 0.936305	-510.138000	 0.936305	-510.138000	 0.000000	0.000000	 
2.020000e-01	 0.000000	0.000000	 0.935998	-512.676000	 0.935998	-512.676000	 0.000000	0.000000	 
2.030000e-01	 0.000000	0.000000	 0.935692	-515.214000	 0.935692	-515.214000	 0.000000	0.000000	 
2.040000e-01	 0.000000	0.000000	 0.935385	-517.752000	 0.935385	-517.752000	 0.000000	0.000000	 
2.050000e-01	 0.000000	0.000000	 0.935079	-520.290000	 0.935079	-520.290000	 0.000000	0.000000	 
